
**** 01/19/25 13:51:00 ****** PSpice 17.2.0 (March 2016) ****** ID# 0 ********

 ** Profile: "SCHEMATIC1-bias"  [ E:\Project_Rajabi\TESTER\OPAMP_TESTER\orcad\opamp_tester-pspicefiles\schematic1\bias.sim ] 


 ****     CIRCUIT DESCRIPTION


******************************************************************************




** Creating circuit file "bias.cir" 
** WARNING: THIS AUTOMATICALLY GENERATED FILE MAY BE OVERWRITTEN BY SUBSEQUENT SIMULATIONS

*Libraries: 
* Profile Libraries :
* Local Libraries :
* From [PSPICE NETLIST] section of C:\Users\S.Rajabi\AppData\Roaming\SPB_Data\cdssetup\OrCAD_PSpice\17.2.0\PSpice.ini file:
.lib "nom.lib" 

*Analysis directives: 
.TRAN  0 0.01s 0 
.OPTIONS ADVCONV
.PROBE64 V(alias(*)) I(alias(*)) W(alias(*)) D(alias(*)) NOISE(alias(*)) 
.INC "..\SCHEMATIC1.net" 



**** INCLUDING SCHEMATIC1.net ****
* source OPAMP_TESTER
V_V1         15+ 0 25
V_V2         15- 0 -25
R_R18         N39072 N38768  99.9K TC=0,0 
C_C7         N38442 V-  1u  TC=0,0 
R_R12         0 N38668  100 TC=0,0 
C_C10         N38758 N38768  5u  TC=0,0 
C_C11         N39006 N38768  50pF  TC=0,0 
R_R14         N38698 N38758  220K TC=0,0 
C_C8         0 N38652  1n  TC=0,0 
R_R13         N38668 N38668  1Meg TC=0,0 
X_U7         0 N38758 15+ 15- N38768 N39006 AD797S/AD
C_C12         N38442 V+  1u  TC=0,0 
R_R15         0 N39072  100 TC=0,0 
R_R17         N38698 N38758  220K TC=0,0 
R_R11         N38668 V-  9.9K TC=0,0 
C_C9         0 0  33n  TC=0,0 
X_U6A         N39072 N38668 V+ V- N38698 LM324
V_V6         N38442 0  
+SIN 0 2m 500 0 0 0
R_R10         N38652 0  10k TC=0,0 
R_R16         N39072 N39072  1Meg TC=0,0 
R_R21         0 N41097  100 TC=0,0 
R_R19         0 N40935  100 TC=0,0 
C_C14         N41053 N40857  50pF  TC=0,0 
X_U8A         N41097 N40935 15+ 15- N41025 LM324
C_C13         N40841 N41580  1u  TC=0,0 
R_R22         N41025 N40841  220K TC=0,0 
X_U9         0 N40841 15+ 15- N40857 N41053 AD797S/AD
R_R23         N41097 N40857  100K TC=0,0 
R_R20         N41025 N40841  220K TC=0,0 
R_R24         N41580 N40857  110K TC=0,0 
R_R26         0 N43470  100 TC=0,0 
R_R30         N43632 N43382  100K TC=0,0 
X_U10A         N43632 N43470 15+ 15- N43560 LM324
C_C15         N43368 N43378  1u  TC=0,0 
R_R28         0 N43632  100 TC=0,0 
R_R29         N43560 N43368  220K TC=0,0 
R_R25         N43378 N43382  110K TC=0,0 
R_R27         N43560 N43368  220K TC=0,0 
X_U10B         0 N43368 15+ 15- N43382 LM324
X_U10C         N44552 N44502 N44572 0 N44502 LM324
V_V7         N44552 0 2.5Vdc
V_V8         N45861 0 2.5Vdc
V_V9         N44572 0 5Vdc
R_R31         N45861 N44502  1K TC=0,0 
R_R33         0 N48161  100 TC=0,0 
X_U11B         N48349 N48065 15+ 15- N48075 LM324
R_R35         0 N48287  100 TC=0,0 
X_U10D         N48287 N48161 V+ V- N48227 LM324
C_C16         N48065 N48075  10n  TC=0,0 
R_R37         N48287 N48075  10K TC=0,0 
R_R34         N48227 N48065  1000K TC=0,0 
V_V10         V+ 0 25
V_V11         V- 0 -5
R_R38         N48065 N48075  1000K TC=0,0 
R_R39         V+ N48349  220K TC=0,0 
R_R40         N48349 V-  220K TC=0,0 

**** RESUMING bias.cir ****
.END

**** 01/19/25 13:51:00 ****** PSpice 17.2.0 (March 2016) ****** ID# 0 ********

 ** Profile: "SCHEMATIC1-bias"  [ E:\Project_Rajabi\TESTER\OPAMP_TESTER\orcad\opamp_tester-pspicefiles\schematic1\bias.sim ] 


 ****     Diode MODEL PARAMETERS


******************************************************************************




               X_U7.DX         X_U7.DEN        X_U7.DIN        X_U6A.dx        
          IS    1.000000E-15    1.000000E-12    1.000000E-12  800.000000E-18 
          RS                    6.370800E+03  474               1            
          KF                    1.590000E-15    7.816000E-15                 


               X_U6A.dy        X_U8A.dx        X_U8A.dy        X_U9.DX         
          IS  800.000000E-18  800.000000E-18  800.000000E-18    1.000000E-15 
          RS    1.000000E-03    1               1.000000E-03                 
         CJO   10.000000E-12                   10.000000E-12                 


               X_U9.DEN        X_U9.DIN        X_U10A.dx       X_U10A.dy       
          IS    1.000000E-12    1.000000E-12  800.000000E-18  800.000000E-18 
          RS    6.370800E+03  474               1               1.000000E-03 
         CJO                                                   10.000000E-12 
          KF    1.590000E-15    7.816000E-15                                 


               X_U10B.dx       X_U10B.dy       X_U10C.dx       X_U10C.dy       
          IS  800.000000E-18  800.000000E-18  800.000000E-18  800.000000E-18 
          RS    1               1.000000E-03    1               1.000000E-03 
         CJO                   10.000000E-12                   10.000000E-12 


               X_U11B.dx       X_U11B.dy       X_U10D.dx       X_U10D.dy       
          IS  800.000000E-18  800.000000E-18  800.000000E-18  800.000000E-18 
          RS    1               1.000000E-03    1               1.000000E-03 
         CJO                   10.000000E-12                   10.000000E-12 


**** 01/19/25 13:51:00 ****** PSpice 17.2.0 (March 2016) ****** ID# 0 ********

 ** Profile: "SCHEMATIC1-bias"  [ E:\Project_Rajabi\TESTER\OPAMP_TESTER\orcad\opamp_tester-pspicefiles\schematic1\bias.sim ] 


 ****     BJT MODEL PARAMETERS


******************************************************************************




               X_U7.QX         X_U6A.qx        X_U8A.qx        X_U9.QX         
               NPN             PNP             PNP             NPN             
       LEVEL    1               1               1               1            
          IS  100.000000E-18  800.000000E-18  800.000000E-18  100.000000E-18 
          BF   33.333000E+03  166.7           166.7            33.333000E+03 
          NF    1               1               1               1            
          BR    1               1               1               1            
          NR    1               1               1               1            
         ISS    0               0               0               0            
          RE    0               0               0               0            
          RC    0               0               0               0            
         CJE    0               0               0               0            
         VJE     .75             .75             .75             .75         
         CJC    0               0               0               0            
         VJC     .75             .75             .75             .75         
         MJC     .33             .33             .33             .33         
        XCJC    1               1               1               1            
         CJS    0               0               0               0            
         VJS     .75             .75             .75             .75         
          KF    0               0               0               0            
          AF    1               1               1               1            
          CN    2.42            2.2             2.2             2.42         
           D     .87             .52             .52             .87         


               X_U10A.qx       X_U10B.qx       X_U10C.qx       X_U11B.qx       
               PNP             PNP             PNP             PNP             
       LEVEL    1               1               1               1            
          IS  800.000000E-18  800.000000E-18  800.000000E-18  800.000000E-18 
          BF  166.7           166.7           166.7           166.7          
          NF    1               1               1               1            
          BR    1               1               1               1            
          NR    1               1               1               1            
         ISS    0               0               0               0            
          RE    0               0               0               0            
          RC    0               0               0               0            
         CJE    0               0               0               0            
         VJE     .75             .75             .75             .75         
         CJC    0               0               0               0            
         VJC     .75             .75             .75             .75         
         MJC     .33             .33             .33             .33         
        XCJC    1               1               1               1            
         CJS    0               0               0               0            
         VJS     .75             .75             .75             .75         
          KF    0               0               0               0            
          AF    1               1               1               1            
          CN    2.2             2.2             2.2             2.2          
           D     .52             .52             .52             .52         


               X_U10D.qx       
               PNP             
       LEVEL    1            
          IS  800.000000E-18 
          BF  166.7          
          NF    1            
          BR    1            
          NR    1            
         ISS    0            
          RE    0            
          RC    0            
         CJE    0            
         VJE     .75         
         CJC    0            
         VJC     .75         
         MJC     .33         
        XCJC    1            
         CJS    0            
         VJS     .75         
          KF    0            
          AF    1            
          CN    2.2          
           D     .52         


**** 01/19/25 13:51:00 ****** PSpice 17.2.0 (March 2016) ****** ID# 0 ********

 ** Profile: "SCHEMATIC1-bias"  [ E:\Project_Rajabi\TESTER\OPAMP_TESTER\orcad\opamp_tester-pspicefiles\schematic1\bias.sim ] 


 ****     Current Controlled Switch MODEL PARAMETERS


******************************************************************************




               X_U6A.sw2       X_U6A.sw1       X_U6A.sw3       X_U6A.sw4       
         RON    1               1               1               1            
        ROFF   10.000000E+06   10.000000E+06   10.000000E+06   10.000000E+06 
         ION    0              -1.000000E-06   -1.000000E-06    0            
        IOFF   -1.000000E-06    0               0              -1.000000E-06 


               X_U8A.sw2       X_U8A.sw1       X_U8A.sw3       X_U8A.sw4       
         RON    1               1               1               1            
        ROFF   10.000000E+06   10.000000E+06   10.000000E+06   10.000000E+06 
         ION    0              -1.000000E-06   -1.000000E-06    0            
        IOFF   -1.000000E-06    0               0              -1.000000E-06 


               X_U10A.sw2      X_U10A.sw1      X_U10A.sw3      X_U10A.sw4      
         RON    1               1               1               1            
        ROFF   10.000000E+06   10.000000E+06   10.000000E+06   10.000000E+06 
         ION    0              -1.000000E-06   -1.000000E-06    0            
        IOFF   -1.000000E-06    0               0              -1.000000E-06 


               X_U10B.sw2      X_U10B.sw1      X_U10B.sw3      X_U10B.sw4      
         RON    1               1               1               1            
        ROFF   10.000000E+06   10.000000E+06   10.000000E+06   10.000000E+06 
         ION    0              -1.000000E-06   -1.000000E-06    0            
        IOFF   -1.000000E-06    0               0              -1.000000E-06 


               X_U10C.sw2      X_U10C.sw1      X_U10C.sw3      X_U10C.sw4      
         RON    1               1               1               1            
        ROFF   10.000000E+06   10.000000E+06   10.000000E+06   10.000000E+06 
         ION    0              -1.000000E-06   -1.000000E-06    0            
        IOFF   -1.000000E-06    0               0              -1.000000E-06 


               X_U11B.sw2      X_U11B.sw1      X_U11B.sw3      X_U11B.sw4      
         RON    1               1               1               1            
        ROFF   10.000000E+06   10.000000E+06   10.000000E+06   10.000000E+06 
         ION    0              -1.000000E-06   -1.000000E-06    0            
        IOFF   -1.000000E-06    0               0              -1.000000E-06 


               X_U10D.sw2      X_U10D.sw1      X_U10D.sw3      X_U10D.sw4      
         RON    1               1               1               1            
        ROFF   10.000000E+06   10.000000E+06   10.000000E+06   10.000000E+06 
         ION    0              -1.000000E-06   -1.000000E-06    0            
        IOFF   -1.000000E-06    0               0              -1.000000E-06 


**** 01/19/25 13:51:00 ****** PSpice 17.2.0 (March 2016) ****** ID# 0 ********

 ** Profile: "SCHEMATIC1-bias"  [ E:\Project_Rajabi\TESTER\OPAMP_TESTER\orcad\opamp_tester-pspicefiles\schematic1\bias.sim ] 


 ****     INITIAL TRANSIENT SOLUTION       TEMPERATURE =   27.000 DEG C


******************************************************************************



 NODE   VOLTAGE     NODE   VOLTAGE     NODE   VOLTAGE     NODE   VOLTAGE


(   V+)   25.0000  (   V-)   -5.0000  (  15+)   25.0000  (  15-)  -25.0000      

(N38442)    0.0000 (N38652)    0.0000 (N38668)    -.0500 (N38698)   24.3160     

(N38758)     .6746 (N38768)  -21.3810 (N39006)  -21.1350 (N39072)    -.0214     

(N40841) 79.81E-06 (N40857)     .1942 (N40935) 4.494E-06 (N41025)     .1431     

(N41053)     .1943 (N41097) 198.5E-06 (N41580)     .1942 (N43368)-194.4E-06     

(N43378)     .1927 (N43382)     .1927 (N43470) 4.494E-06 (N43560)    -.0051     

(N43632) 197.0E-06 (N44502)    2.4998 (N44552)    2.5000 (N44572)    5.0000     

(N45861)    2.5000 (N48065)   10.0010 (N48075)    -.2813 (N48161) 4.548E-06     

(N48227)   20.2390 (N48287)    -.0028 (N48349)   10.0040 (X_U7.3)-281.0E-18     

(X_U7.4)    -.2187 (X_U7.5)   24.9480 (X_U7.6)   25.0000 (X_U7.9) 80.67E-06     

(X_U9.3)-281.0E-18 (X_U9.4)    -.8753 (X_U9.5)   24.9740 (X_U9.6)   24.9740     

(X_U9.9) 80.00E-06 (X_U6A.6)    -.5972                   (X_U6A.7)   26.3450    

(X_U6A.8)   26.3450                   (X_U6A.9)    0.0000                       

(X_U6A.a)   24.9590                   (X_U6A.b)    -.0406                       

(X_U7.10)   -2.0720                   (X_U7.11)    1.2090                       

(X_U7.12)   -1.2090                   (X_U7.13)    -.0207                       

(X_U7.15)  -21.0990                   (X_U7.16)  -21.3850                       

(X_U7.17)  -21.0990                   (X_U7.18)  -21.3850                       

(X_U7.19)   20.6790                   (X_U7.20)  -20.6790                       

(X_U7.21)     .6730                   (X_U7.22) 673.0E-09                       

(X_U7.23)  -21.3850                   (X_U7.24)  -21.3850                       

(X_U7.25)-21.39E+06                   (X_U7.26)  -21.3850                       

(X_U7.27)  -21.3850                   (X_U7.28)  -21.3850                       

(X_U7.29)  -21.3850                   (X_U7.30)  -21.3850                       

(X_U7.31)-1.776E-15                   (X_U7.32)     .6568                       

(X_U7.33)-1.776E-15                   (X_U7.34)-1.776E-15                       

(X_U7.35)  -20.4360                   (X_U7.36)  -22.1260                       

(X_U7.37)  -21.3810                   (X_U7.40)    2.0000                       

(X_U7.41)-2.810E-15                   (X_U7.42)   -2.0000                       

(X_U7.43)    2.0000                   (X_U7.44)    0.0000                       

(X_U7.45)   -2.0000                   (X_U7.46)    2.0000                       

(X_U7.47) 555.1E-18                   (X_U7.48)   -2.0000                       

(X_U7.51)  -25.0000                   (X_U7.97)   25.0000                       

(X_U7.98)-1.776E-15                   (X_U8A.6)-26.99E-06                       

(X_U8A.7)     .1431                   (X_U8A.8)     .1431                       

(X_U8A.9)    0.0000                   (X_U8A.a)   25.0000                       

(X_U8A.b)-3.800E-06                   (X_U9.10) 19.43E-06                       

(X_U9.11)    1.2090                   (X_U9.12)   -1.2090                       

(X_U9.13) 194.3E-09                   (X_U9.15)     .1943                       

(X_U9.16)     .1943                   (X_U9.17)     .1943                       

(X_U9.18)     .1943                   (X_U9.19)   20.6790                       

(X_U9.20)  -20.6790                   (X_U9.21) 79.62E-06                       

(X_U9.22) 79.61E-12                   (X_U9.23)     .1943                       

(X_U9.24)     .1943                   (X_U9.25) 194.3E+03                       

(X_U9.26)     .1943                   (X_U9.27)     .1943                       

(X_U9.28)     .1943                   (X_U9.29)     .1943                       

(X_U9.30)     .1943                   (X_U9.31)-1.776E-15                       

(X_U9.32)    -.5352                   (X_U9.33)-1.776E-15                       

(X_U9.34)-1.776E-15                   (X_U9.35)    1.1392                       

(X_U9.36)    -.5508                   (X_U9.37)     .1942                       

(X_U9.40)    2.0000                   (X_U9.41)-2.810E-15                       

(X_U9.42)   -2.0000                   (X_U9.43)    2.0000                       

(X_U9.44)-1.554E-15                   (X_U9.45)   -2.0000                       

(X_U9.46)    2.0000                   (X_U9.47) 732.4E-18                       

(X_U9.48)   -2.0000                   (X_U9.51)  -25.0000                       

(X_U9.97)   25.0000                   (X_U9.98)-1.776E-15                       

(X_U10A.6) 968.8E-09                  (X_U10A.7)    -.0051                      

(X_U10A.8)    -.0051                  (X_U10A.9)    0.0000                      

(X_U10A.a)   25.0000                  (X_U10A.b)-2.972E-06                      

(X_U10B.6)-36.36E-06                  (X_U10B.7)     .1928                      

(X_U10B.8)     .1928                  (X_U10B.9)    0.0000                      

(X_U10B.a)   25.0000                  (X_U10B.b)-4.425E-06                      

(X_U10C.6) 39.43E-09                  (X_U10C.7)    2.4998                      

(X_U10C.8)    2.4998                  (X_U10C.9)    0.0000                      

(X_U10C.a)    5.0000                  (X_U10C.b) 2.357E-06                      

(X_U10D.6)    -.0019                  (X_U10D.7)   20.2390                      

(X_U10D.8)   20.2390                  (X_U10D.9)    0.0000                      

(X_U10D.a)   25.0000                  (X_U10D.b)-10.74E-06                      

(X_U11B.6) 53.56E-06                  (X_U11B.7)    -.2832                      

(X_U11B.8)    -.2832                  (X_U11B.9)    0.0000                      

(X_U11B.a) 40.63E-06                  (X_U11B.b)  -25.0000                      

(X_U6A.10)     .5723                  (X_U6A.11)   -4.9440                      

(X_U6A.12)   -4.9727                  (X_U6A.13)     .5527                      

(X_U6A.14)     .5628                  (X_U6A.53)   23.5000                      

(X_U6A.54)   -4.1780                  (X_U6A.90)   40.5790                      

(X_U6A.91)   40.0000                  (X_U6A.92)  -40.0000                      

(X_U6A.99)   10.0000                  (X_U8A.10)     .6078                      

(X_U8A.11)  -24.9600                  (X_U8A.12)  -24.9600                      

(X_U8A.13)     .5939                  (X_U8A.14)     .5939                      

(X_U8A.53)   23.5000                  (X_U8A.54)  -24.1780                      

(X_U8A.90)     .0013                  (X_U8A.91)   40.0000                      

(X_U8A.92)  -40.0000                  (X_U8A.99)    0.0000                      

